
T200C 000:417 SEGGER J-Link V4.80g Log File (0001ms, 0295ms total)
T200C 000:417 DLL Compiled: Feb 13 2014 20:50:02 (0001ms, 0295ms total)
T200C 000:417 Logging started @ 2019-07-31 16:07 (0001ms, 0295ms total)
T200C 000:418 JLINK_SetWarnOutHandler(...) (0000ms, 0295ms total)
T200C 000:418 JLINK_OpenEx(...)
Firmware: J-Link ARM V8 compiled Jan 31 2018 18:34:52
Hardware: V8.00
S/N: 20080643
Feature(s): RDI,FlashDL,FlashBP,JFlash,GDBFull  returns O.K. (0275ms, 0570ms total)
T200C 000:693 JLINK_SetErrorOutHandler(...) (0000ms, 0570ms total)
T200C 000:693 JLINK_ExecCommand("ProjectFile = "E:\CX-3000\src\CX-3000\workspace\prj\JLinkSettings.ini"", ...)  returns 0x00 (0000ms, 0570ms total)
T200C 000:693 JLINK_ExecCommand("Device = STM32F407ZE", ...)Device "STM32F407ZE" selected (512 KB flash, 128 KB RAM).  returns 0x00 (0001ms, 0571ms total)
T200C 000:694 JLINK_ExecCommand("DisableConnectionTimeout", ...)  returns 0x01 (0000ms, 0571ms total)
T200C 000:694 JLINK_GetHardwareVersion()  returns 0x13880 (0000ms, 0571ms total)
T200C 000:694 JLINK_GetDLLVersion()  returns 48007 (0000ms, 0571ms total)
T200C 000:694 JLINK_GetFirmwareString(...) (0000ms, 0571ms total)
T200C 000:694 JLINK_GetDLLVersion()  returns 48007 (0000ms, 0571ms total)
T200C 000:694 JLINK_GetCompileDateTime() (0000ms, 0571ms total)
T200C 000:694 JLINK_GetFirmwareString(...) (0000ms, 0571ms total)
T200C 000:694 JLINK_GetHardwareVersion()  returns 0x13880 (0000ms, 0571ms total)
T200C 000:695 JLINK_TIF_Select(JLINKARM_TIF_SWD)  returns 0x00 (0004ms, 0575ms total)
T200C 000:699 JLINK_SetSpeed(2000) (0001ms, 0576ms total)
T200C 000:700 JLINK_GetId() >0x108 TIF>Found SWD-DP with ID 0x2BA01477 >0x0D TIF> >0x28 TIF> >0x0D TIF> >0x28 TIF> >0x0D TIF> >0x21 TIF> >0x0D TIF> >0x28 TIF> >0x0D TIF> >0x28 TIF> >0x0D TIF> >0x28 TIF> >0x0D TIF> >0x21 TIF> >0x0D TIF> >0x21 TIF> >0x0D TIF> >0x28 TIF> >0x0D TIF> >0x21 TIF> >0x0D TIF> >0x21 TIF> >0x0D TIF> >0x28 TIF> >0x0D TIF> >0x21 TIF> >0x0D TIF> >0x21 TIF> >0x108 TIF>Found SWD-DP with ID 0x2BA01477 >0x0D TIF> >0x21 TIF> >0x0D TIF> >0x28 TIF> >0x0D TIF> >0x28 TIF> >0x0D TIF> >0x21 TIF>
 >0x0D TIF> >0x28 TIF> >0x0D TIF> >0x21 TIF> >0x0D TIF> >0x21 TIF> >0x0D TIF> >0x21 TIF> >0x0D TIF> >0x28 TIF> >0x0D TIF> >0x21 TIF> >0x0D TIF> >0x28 TIF> >0x0D TIF> >0x28 TIF> >0x0D TIF> >0x21 TIF> >0x0D TIF> >0x28 TIF> >0x0D TIF> >0x28 TIF> >0x0D TIF> >0x28 TIF> >0x0D TIF> >0x21 TIF> >0x0D TIF> >0x21 TIF> >0x0D TIF> >0x28 TIF> >0x0D TIF> >0x21 TIF> >0x0D TIF> >0x21 TIF>Found Cortex-M4 r0p1, Little endian. >0x0D TIF> >0x28 TIF> -- CPU_WriteMem(4 bytes @ 0xE0002000) -- CPU_ReadMem(4 bytes @ 0xE000EDF0)
 -- CPU_ReadMem(4 bytes @ 0xE0002000)FPUnit: 6 code (BP) slots and 2 literal slots -- CPU_ReadMem(4 bytes @ 0xE000EDFC) -- CPU_ReadMem(4 bytes @ 0xE0001000) -- CPU_WriteMem(4 bytes @ 0xE0001000) -- CPU_ReadMem(4 bytes @ 0xE00FF010)TPIU fitted. -- CPU_ReadMem(4 bytes @ 0xE00FF014)ETM fitted. -- CPU_ReadMem(4 bytes @ 0xE00FF018) >0x0D TIF> >0x21 TIF>  returns 0x2BA01477 (0097ms, 0673ms total)
T200C 000:797 JLINK_GetDeviceFamily()  returns 14 (0000ms, 0673ms total)
T200C 000:797 JLINK_ReadMem (0xE00FFFF0, 0x0010 Bytes, ...) -- CPU is running -- CPU_ReadMem(16 bytes @ 0xE00FFFF0) -- Data:  0D 00 00 00 10 00 00 00 05 00 00 00 B1 00 00 00  returns 0x00 (0001ms, 0674ms total)
T200C 000:798 JLINK_ReadMem (0xE00FFFD0, 0x0020 Bytes, ...) -- CPU is running -- CPU_ReadMem(32 bytes @ 0xE00FFFD0) -- Data:  00 00 00 00 00 00 00 00 00 00 00 00 00 00 00 00 ...  returns 0x00 (0001ms, 0675ms total)
T200C 000:799 JLINK_ReadMem (0xE00FF000, 0x0018 Bytes, ...) -- CPU is running -- CPU_ReadMem(24 bytes @ 0xE00FF000) -- Data:  03 F0 F0 FF 03 20 F0 FF 03 30 F0 FF 03 10 F0 FF ...  returns 0x00 (0001ms, 0676ms total)
T200C 000:800 JLINK_ReadMemU32(0xE000ED00, 0x0001 Items, ...) -- CPU is running -- CPU_ReadMem(4 bytes @ 0xE000ED00) -- Data:  41 C2 0F 41  returns 0x01 (0001ms, 0677ms total)
T200C 000:801 JLINK_ReadMemU32(0xE000EF40, 0x0001 Items, ...) -- CPU is running -- CPU_ReadMem(4 bytes @ 0xE000EF40) -- Data:  21 00 11 10  returns 0x01 (0001ms, 0678ms total)
T200C 000:802 JLINK_ReadMemU32(0xE000EF44, 0x0001 Items, ...) -- CPU is running -- CPU_ReadMem(4 bytes @ 0xE000EF44) -- Data:  11 00 00 11  returns 0x01 (0001ms, 0679ms total)
T200C 000:803 JLINK_SetResetType(JLINKARM_RESET_TYPE_NORMAL)  returns JLINKARM_RESET_TYPE_NORMAL (0000ms, 0679ms total)
T200C 000:803 JLINK_Reset() -- CPU_WriteMem(4 bytes @ 0xE0002000) -- CPU_ReadMem(4 bytes @ 0xE000EDFC) -- CPU_WriteMem(4 bytes @ 0xE000EDFC) -- CPU_ReadMem(4 bytes @ 0xE0001000) (0020ms, 0699ms total)
T200C 000:823 JLINK_ReadReg(R15 (PC))  returns 0x0800C678 (0000ms, 0699ms total)
T200C 000:823 JLINK_ReadReg(XPSR)  returns 0x01000000 (0000ms, 0699ms total)
T200C 000:823 JLINK_Halt()  returns 0x00 (0000ms, 0699ms total)
T200C 000:823 JLINK_IsHalted()  returns TRUE (0000ms, 0699ms total)
T200C 000:823 JLINK_ReadMemU32(0xE000EDF0, 0x0001 Items, ...) -- CPU_ReadMem(4 bytes @ 0xE000EDF0) -- Data:  03 00 03 00  returns 0x01 (0001ms, 0700ms total)
T200C 000:824 JLINK_WriteU32(0xE000EDF0, 0xA05F0003) -- CPU_WriteMem(4 bytes @ 0xE000EDF0)  returns 0x00 (0001ms, 0701ms total)
T200C 000:825 JLINK_WriteU32(0xE000EDFC, 0x01000000) -- CPU_WriteMem(4 bytes @ 0xE000EDFC)  returns 0x00 (0001ms, 0702ms total)
T200C 000:827 JLINK_GetHWStatus(...)  returns 0x00 (0000ms, 0702ms total)
T200C 000:827 JLINK_GetNumBPUnits(Type = 0xFFFFFF00)  returns 0x06 (0000ms, 0702ms total)
T200C 000:827 JLINK_GetNumBPUnits(Type = 0xF0)  returns 0x2000 (0000ms, 0702ms total)
T200C 000:827 JLINK_GetNumWPUnits()  returns 0x04 (0000ms, 0702ms total)
T200C 000:828 JLINK_GetSpeed()  returns 0x7D0 (0000ms, 0702ms total)
T200C 000:828 JLINK_ReadMemU32(0xE000E004, 0x0001 Items, ...) -- CPU_ReadMem(4 bytes @ 0xE000E004) -- Data:  02 00 00 00  returns 0x01 (0000ms, 0702ms total)
T200C 000:828 JLINK_ReadMemU32(0xE000E004, 0x0001 Items, ...) -- CPU_ReadMem(4 bytes @ 0xE000E004) -- Data:  02 00 00 00  returns 0x01 (0001ms, 0703ms total)
T200C 000:829 JLINK_WriteMem(0xE0001000, 0x001C Bytes, ...) -- Data:  01 00 00 00 00 00 00 00 00 00 00 00 00 00 00 00 ... -- CPU_WriteMem(28 bytes @ 0xE0001000)  returns 0x1C (0001ms, 0704ms total)
T200C 000:830 JLINK_ReadMem (0xE0001000, 0x001C Bytes, ...) -- CPU_ReadMem(28 bytes @ 0xE0001000) -- Data:  01 00 00 40 00 00 00 00 00 00 00 00 00 00 00 00 ...  returns 0x00 (0001ms, 0705ms total)
T200C 000:831 JLINK_ReadReg(R15 (PC))  returns 0x0800C678 (0000ms, 0705ms total)
T200C 000:831 JLINK_ReadReg(XPSR)  returns 0x01000000 (0000ms, 0705ms total)
T200C 000:859 JLINK_ReadMem (0x08000000, 0x0254 Bytes, ...) -- CPU_ReadMem(640 bytes @ 0x08000000) -- Updating C cache (640 bytes @ 0x08000000) -- Read from C cache (596 bytes @ 0x08000000) -- Data:  B0 4D 01 20 79 C6 00 08 81 C6 00 08 83 C6 00 08 ...  returns 0x00 (0008ms, 0713ms total)
T200C 000:868 JLINK_ReadMem (0x0800C000, 0x1000 Bytes, ...) -- CPU_ReadMem(4096 bytes @ 0x0800C000) -- Updating C cache (4096 bytes @ 0x0800C000) -- Read from C cache (4096 bytes @ 0x0800C000) -- Data:  10 B5 06 F0 68 FD 64 20 14 F0 03 F9 06 F0 72 FD ...  returns 0x00 (0044ms, 0757ms total)
T200C 000:913 JLINK_ReadMem (0x0800D000, 0x1000 Bytes, ...) -- CPU_ReadMem(4096 bytes @ 0x0800D000) -- Updating C cache (4096 bytes @ 0x0800D000) -- Read from C cache (4096 bytes @ 0x0800D000) -- Data:  8A FE 01 20 F7 E7 30 B5 87 B0 00 20 06 90 05 90 ...  returns 0x00 (0045ms, 0802ms total)
T200C 000:959 JLINK_ReadMem (0x0800E000, 0x1000 Bytes, ...) -- CPU_ReadMem(4096 bytes @ 0x0800E000) -- Updating C cache (4096 bytes @ 0x0800E000) -- Read from C cache (4096 bytes @ 0x0800E000) -- Data:  68 1C 41 08 9B A0 1B F0 B7 F8 02 20 FF F7 A2 FE ...  returns 0x00 (0045ms, 0847ms total)
T200C 001:005 JLINK_ReadMem (0x0800F000, 0x1000 Bytes, ...) -- CPU_ReadMem(4096 bytes @ 0x0800F000) -- Updating C cache (4096 bytes @ 0x0800F000) -- Read from C cache (4096 bytes @ 0x0800F000) -- Data:  07 22 20 46 61 1C CC B2 0D F8 00 20 68 1C C0 F3 ...  returns 0x00 (0046ms, 0893ms total)
T200C 001:053 JLINK_ReadMem (0x08010000, 0x1000 Bytes, ...) -- CPU_ReadMem(4096 bytes @ 0x08010000) -- Updating C cache (4096 bytes @ 0x08010000) -- Read from C cache (4096 bytes @ 0x08010000) -- Data:  38 00 00 20 0D 0A 2D 2D 2D 2D 2D 2D 2D 2D 2D 2D ...  returns 0x00 (0044ms, 0937ms total)
T200C 001:098 JLINK_ReadMem (0x08011000, 0x1000 Bytes, ...) -- CPU_ReadMem(4096 bytes @ 0x08011000) -- Updating C cache (4096 bytes @ 0x08011000) -- Read from C cache (4096 bytes @ 0x08011000) -- Data:  6C FF 34 90 05 20 01 F0 97 FB 0B 90 01 F0 39 FF ...  returns 0x00 (0045ms, 0982ms total)
T200C 001:144 JLINK_ReadMem (0x08012000, 0x1000 Bytes, ...) -- CPU_ReadMem(4096 bytes @ 0x08012000) -- Updating C cache (4096 bytes @ 0x08012000) -- Read from C cache (4096 bytes @ 0x08012000) -- Data:  01 20 FA F7 4E FE 02 20 06 B0 10 BD 02 20 FF F7 ...  returns 0x00 (0045ms, 1027ms total)
T200C 001:190 JLINK_ReadMem (0x08013000, 0x1000 Bytes, ...) -- CPU_ReadMem(4096 bytes @ 0x08013000) -- Updating C cache (4096 bytes @ 0x08013000) -- Read from C cache (4096 bytes @ 0x08013000) -- Data:  04 46 20 46 10 BD 70 B5 FF F7 F6 FF 05 46 41 F2 ...  returns 0x00 (0044ms, 1071ms total)
T200C 001:236 JLINK_ReadMem (0x08014000, 0x1000 Bytes, ...) -- CPU_ReadMem(4096 bytes @ 0x08014000) -- Updating C cache (4096 bytes @ 0x08014000) -- Read from C cache (4096 bytes @ 0x08014000) -- Data:  05 61 00 BF 00 98 40 1C 00 90 CA 48 05 69 15 F0 ...  returns 0x00 (0044ms, 1115ms total)
T200C 001:281 JLINK_ReadMem (0x08015000, 0x1000 Bytes, ...) -- CPU_ReadMem(4096 bytes @ 0x08015000) -- Updating C cache (4096 bytes @ 0x08015000) -- Read from C cache (4096 bytes @ 0x08015000) -- Data:  01 2B 0C D1 08 68 40 F0 40 50 08 60 C2 F3 0C 00 ...  returns 0x00 (0045ms, 1160ms total)
T200C 001:327 JLINK_ReadMem (0x08016000, 0x1000 Bytes, ...) -- CPU_ReadMem(4096 bytes @ 0x08016000) -- Updating C cache (4096 bytes @ 0x08016000) -- Read from C cache (4096 bytes @ 0x08016000) -- Data:  01 61 01 21 01 75 70 47 70 B5 04 46 00 25 20 68 ...  returns 0x00 (0045ms, 1205ms total)
T200C 001:374 JLINK_ReadMem (0x08017000, 0x1000 Bytes, ...) -- CPU_ReadMem(4096 bytes @ 0x08017000) -- Updating C cache (4096 bytes @ 0x08017000) -- Read from C cache (4096 bytes @ 0x08017000) -- Data:  08 60 41 E0 AE 48 18 30 84 42 05 D1 4F F4 74 60 ...  returns 0x00 (0044ms, 1249ms total)
T200C 001:420 JLINK_ReadMem (0x08018000, 0x1000 Bytes, ...) -- CPU_ReadMem(4096 bytes @ 0x08018000) -- Updating C cache (4096 bytes @ 0x08018000) -- Read from C cache (4096 bytes @ 0x08018000) -- Data:  84 42 3E D0 80 48 84 42 3B D0 80 48 84 42 38 D0 ...  returns 0x00 (0044ms, 1293ms total)
T200C 001:466 JLINK_ReadMem (0x08019000, 0x1000 Bytes, ...) -- CPU_ReadMem(4096 bytes @ 0x08019000) -- Updating C cache (4096 bytes @ 0x08019000) -- Read from C cache (4096 bytes @ 0x08019000) -- Data:  84 21 FA A0 07 F0 66 F9 34 B9 43 F2 DB 00 4F F0 ...  returns 0x00 (0044ms, 1337ms total)
T200C 001:511 JLINK_ReadMem (0x0801A000, 0x1000 Bytes, ...) -- CPU_ReadMem(4096 bytes @ 0x0801A000) -- Updating C cache (4096 bytes @ 0x0801A000) -- Read from C cache (4096 bytes @ 0x0801A000) -- Data:  05 D0 28 79 02 28 02 D0 28 79 03 28 00 D1 03 E0 ...  returns 0x00 (0044ms, 1381ms total)
T200C 001:556 JLINK_ReadMem (0x0801B000, 0x1000 Bytes, ...) -- CPU_ReadMem(4096 bytes @ 0x0801B000) -- Updating C cache (4096 bytes @ 0x0801B000) -- Read from C cache (4096 bytes @ 0x0801B000) -- Data:  04 46 00 25 B4 F5 80 1F 03 D0 14 B1 B4 F5 00 1F ...  returns 0x00 (0044ms, 1425ms total)
T200C 001:603 JLINK_ReadMem (0x0801C000, 0x1000 Bytes, ...) -- CPU_ReadMem(4096 bytes @ 0x0801C000) -- Updating C cache (4096 bytes @ 0x0801C000) -- Read from C cache (4096 bytes @ 0x0801C000) -- Data:  FA 71 AF F2 90 20 04 F0 65 F9 0D B1 01 2D 00 D1 ...  returns 0x00 (0045ms, 1470ms total)
T200C 001:649 JLINK_ReadMem (0x0801D000, 0x1000 Bytes, ...) -- CPU_ReadMem(4096 bytes @ 0x0801D000) -- Updating C cache (4096 bytes @ 0x0801D000) -- Read from C cache (4096 bytes @ 0x0801D000) -- Data:  04 E0 40 F2 8D 51 A2 48 03 F0 64 F9 04 2D 00 D0 ...  returns 0x00 (0045ms, 1515ms total)
T200C 001:695 JLINK_ReadMem (0x0801E000, 0x1000 Bytes, ...) -- CPU_ReadMem(4096 bytes @ 0x0801E000) -- Updating C cache (4096 bytes @ 0x0801E000) -- Read from C cache (4096 bytes @ 0x0801E000) -- Data:  CE 48 84 42 26 D0 B4 F1 80 4F 23 D0 CC 48 84 42 ...  returns 0x00 (0045ms, 1560ms total)
T200C 001:744 JLINK_ReadMem (0x0801F000, 0x1000 Bytes, ...) -- CPU_ReadMem(4096 bytes @ 0x0801F000) -- Updating C cache (4096 bytes @ 0x0801F000) -- Read from C cache (4096 bytes @ 0x0801F000) -- Data:  72 63 5C 73 74 6D 33 32 66 34 78 78 5F 75 73 61 ...  returns 0x00 (0045ms, 1605ms total)
T200C 001:790 JLINK_ReadMem (0x08020000, 0x1000 Bytes, ...) -- CPU_ReadMem(4096 bytes @ 0x08020000) -- Updating C cache (4096 bytes @ 0x08020000) -- Read from C cache (4096 bytes @ 0x08020000) -- Data:  01 22 68 46 01 99 FF F7 DC FF 05 20 00 F0 01 F9 ...  returns 0x00 (0045ms, 1650ms total)
T200C 001:837 JLINK_ReadMem (0x08021000, 0x1000 Bytes, ...) -- CPU_ReadMem(4096 bytes @ 0x08021000) -- Updating C cache (4096 bytes @ 0x08021000) -- Read from C cache (4096 bytes @ 0x08021000) -- Data:  00 00 20 5C 99 49 49 88 99 4B 58 54 97 48 40 88 ...  returns 0x00 (0044ms, 1694ms total)
T200C 001:884 JLINK_ReadMem (0x08022000, 0x1000 Bytes, ...) -- CPU_ReadMem(4096 bytes @ 0x08022000) -- Updating C cache (4096 bytes @ 0x08022000) -- Read from C cache (4096 bytes @ 0x08022000) -- Data:  28 78 00 F0 F0 00 E0 28 15 D1 01 20 8D F8 00 00 ...  returns 0x00 (0045ms, 1739ms total)
T200C 001:932 JLINK_ReadMem (0x08023000, 0x1000 Bytes, ...) -- CPU_ReadMem(4096 bytes @ 0x08023000) -- Updating C cache (4096 bytes @ 0x08023000) -- Read from C cache (4096 bytes @ 0x08023000) -- Data:  01 F0 AE FE D9 F8 00 70 00 2F F0 D1 20 46 00 99 ...  returns 0x00 (0045ms, 1784ms total)
T200C 001:978 JLINK_ReadMem (0x08024000, 0x1000 Bytes, ...) -- CPU_ReadMem(4096 bytes @ 0x08024000) -- Updating C cache (4096 bytes @ 0x08024000) -- Read from C cache (4096 bytes @ 0x08024000) -- Data:  DA F8 04 00 FF F7 29 F9 21 68 88 42 00 D0 45 E0 ...  returns 0x00 (0045ms, 1829ms total)
T200C 002:027 JLINK_ReadMem (0x08025000, 0x1000 Bytes, ...) -- CPU_ReadMem(4096 bytes @ 0x08025000) -- Updating C cache (4096 bytes @ 0x08025000) -- Read from C cache (4096 bytes @ 0x08025000) -- Data:  90 42 F7 DD 29 B1 48 89 90 42 02 DD 48 68 80 5C ...  returns 0x00 (0048ms, 1877ms total)
T200C 002:077 JLINK_ReadMem (0x08026000, 0x1000 Bytes, ...) -- CPU_ReadMem(4096 bytes @ 0x08026000) -- Updating C cache (4096 bytes @ 0x08026000) -- Read from C cache (4096 bytes @ 0x08026000) -- Data:  58 00 40 F6 68 30 A0 83 E0 83 4F F0 00 00 04 F8 ...  returns 0x00 (0044ms, 1921ms total)
T200C 002:123 JLINK_ReadMem (0x08027000, 0x1000 Bytes, ...) -- CPU_ReadMem(4096 bytes @ 0x08027000) -- Updating C cache (4096 bytes @ 0x08027000) -- Read from C cache (4096 bytes @ 0x08027000) -- Data:  60 68 09 68 88 42 11 D1 76 49 20 68 09 68 88 42 ...  returns 0x00 (0044ms, 1965ms total)
T200C 002:169 JLINK_ReadMem (0x08028000, 0x1000 Bytes, ...) -- CPU_ReadMem(4096 bytes @ 0x08028000) -- Updating C cache (4096 bytes @ 0x08028000) -- Read from C cache (4096 bytes @ 0x08028000) -- Data:  02 90 31 89 02 98 00 78 00 F0 0F 00 08 22 02 EB ...  returns 0x00 (0044ms, 2009ms total)
T200C 002:215 JLINK_ReadMem (0x08029000, 0x1000 Bytes, ...) -- CPU_ReadMem(4096 bytes @ 0x08029000) -- Updating C cache (4096 bytes @ 0x08029000) -- Read from C cache (4096 bytes @ 0x08029000) -- Data:  00 FA 02 F1 00 20 70 47 91 40 C2 F1 20 03 20 FA ...  returns 0x00 (0045ms, 2054ms total)
T200C 002:261 JLINK_ReadMem (0x0802A000, 0x089C Bytes, ...) -- CPU_ReadMem(2240 bytes @ 0x0802A000) -- Updating C cache (2240 bytes @ 0x0802A000) -- Read from C cache (2204 bytes @ 0x0802A000) -- Data:  63 20 54 6F 75 63 68 20 45 72 72 6F 72 2C 20 77 ...  returns 0x00 (0025ms, 2079ms total)
T200C 002:346 JLINK_SetResetType(JLINKARM_RESET_TYPE_NORMAL)  returns JLINKARM_RESET_TYPE_NORMAL (0000ms, 2079ms total)
T200C 002:346 JLINK_Reset() -- CPU_WriteMem(4 bytes @ 0xE0002000) -- CPU_ReadMem(4 bytes @ 0xE000EDFC) -- CPU_WriteMem(4 bytes @ 0xE000EDFC) -- CPU_ReadMem(4 bytes @ 0xE0001000) (0020ms, 2099ms total)
T200C 002:366 JLINK_ReadReg(R15 (PC))  returns 0x0800C678 (0000ms, 2099ms total)
T200C 002:366 JLINK_ReadReg(XPSR)  returns 0x01000000 (0000ms, 2099ms total)
T200C 002:368 JLINK_ReadMem (0x0800C578, 0x003C Bytes, ...) -- CPU_ReadMem(128 bytes @ 0x0800C540) -- Updating C cache (128 bytes @ 0x0800C540) -- Read from C cache (60 bytes @ 0x0800C578) -- Data:  08 60 08 1F 00 68 20 F4 80 20 09 1F 08 60 00 20 ...  returns 0x00 (0002ms, 2101ms total)
T200C 002:370 JLINK_ReadMem (0x0800C5B4, 0x003C Bytes, ...) -- CPU_ReadMem(64 bytes @ 0x0800C5C0) -- Updating C cache (64 bytes @ 0x0800C5C0) -- Read from C cache (60 bytes @ 0x0800C5B4) -- Data:  20 B1 04 28 06 D0 08 28 34 D1 07 E0 29 4D 2A 4E ...  returns 0x00 (0002ms, 2103ms total)
T200C 002:372 JLINK_ReadMem (0x0800C5F0, 0x003C Bytes, ...) -- CPU_ReadMem(64 bytes @ 0x0800C600) -- Updating C cache (64 bytes @ 0x0800C600) -- Read from C cache (60 bytes @ 0x0800C5F0) -- Data:  36 68 C6 F3 88 16 05 FB 06 F2 09 E0 1A 4D B5 FB ...  returns 0x00 (0002ms, 2105ms total)
T200C 002:374 JLINK_ReadMem (0x0800C62C, 0x003C Bytes, ...) -- CPU_ReadMem(64 bytes @ 0x0800C640) -- Updating C cache (64 bytes @ 0x0800C640) -- Read from C cache (60 bytes @ 0x0800C62C) -- Data:  35 60 00 BF 00 BF 06 4D 08 35 2D 68 C5 F3 03 15 ...  returns 0x00 (0002ms, 2107ms total)
T200C 002:376 JLINK_ReadMem (0x0800C676, 0x0002 Bytes, ...) -- Read from C cache (2 bytes @ 0x0800C676) -- Data:  00 20  returns 0x00 (0000ms, 2107ms total)
T200C 002:376 JLINK_ReadMem (0x0800C678, 0x003C Bytes, ...) -- CPU_ReadMem(64 bytes @ 0x0800C680) -- Updating C cache (64 bytes @ 0x0800C680) -- Read from C cache (60 bytes @ 0x0800C678) -- Data:  06 48 80 47 06 48 00 47 FE E7 FE E7 FE E7 FE E7 ...  returns 0x00 (0002ms, 2109ms total)
T3494 003:291 JLINK_SetBPEx(Addr = 0x0800C2F2, Type = 0xFFFFFFF2)  returns 0x00000001 (0001ms, 2110ms total)
T3494 003:292 JLINK_SetBPEx(Addr = 0x0800FC1E, Type = 0xFFFFFFF2)  returns 0x00000002 (0000ms, 2110ms total)
T3494 003:292 JLINK_SetBPEx(Addr = 0x0800FC14, Type = 0xFFFFFFF2)  returns 0x00000003 (0000ms, 2110ms total)
T3494 003:292 JLINK_SetBPEx(Addr = 0x0800C2D4, Type = 0xFFFFFFF2)  returns 0x00000004 (0000ms, 2110ms total)
T3494 003:292 JLINK_SetBPEx(Addr = 0x0800C296, Type = 0xFFFFFFF2)  returns 0x00000005 (0000ms, 2110ms total)
T3494 003:292 JLINK_Go() -- CPU_WriteMem(4 bytes @ 0xE0002000) -- CPU_WriteMem(4 bytes @ 0xE0002008) -- CPU_WriteMem(4 bytes @ 0xE0002000) -- CPU_WriteMem(4 bytes @ 0xE000200C) -- CPU_WriteMem(4 bytes @ 0xE0002000) -- CPU_WriteMem(4 bytes @ 0xE0002010) -- CPU_WriteMem(4 bytes @ 0xE0002000) -- CPU_WriteMem(4 bytes @ 0xE0002014) -- CPU_WriteMem(4 bytes @ 0xE0002000) -- CPU_WriteMem(4 bytes @ 0xE0002018) -- CPU_WriteMem(4 bytes @ 0xE000201C) -- CPU_WriteMem(4 bytes @ 0xE0001004) (0016ms, 2126ms total)
T3494 003:408 JLINK_IsHalted()  returns TRUE (0005ms, 2131ms total)
T3494 003:413 JLINK_Halt()  returns 0x00 (0000ms, 2126ms total)
T3494 003:413 JLINK_IsHalted()  returns TRUE (0000ms, 2126ms total)
T3494 003:413 JLINK_IsHalted()  returns TRUE (0000ms, 2126ms total)
T3494 003:413 JLINK_IsHalted()  returns TRUE (0000ms, 2126ms total)
T3494 003:413 JLINK_ReadReg(R15 (PC))  returns 0x0800C2F2 (0000ms, 2126ms total)
T3494 003:413 JLINK_ReadReg(XPSR)  returns 0x61000000 (0000ms, 2126ms total)
T3494 003:413 JLINK_ClrBPEx(BPHandle = 0x00000001)  returns 0x00 (0000ms, 2126ms total)
T3494 003:413 JLINK_ClrBPEx(BPHandle = 0x00000002)  returns 0x00 (0000ms, 2126ms total)
T3494 003:413 JLINK_ClrBPEx(BPHandle = 0x00000003)  returns 0x00 (0000ms, 2126ms total)
T3494 003:413 JLINK_ClrBPEx(BPHandle = 0x00000004)  returns 0x00 (0000ms, 2126ms total)
T3494 003:413 JLINK_ClrBPEx(BPHandle = 0x00000005)  returns 0x00 (0000ms, 2126ms total)
T3494 003:413 JLINK_ReadMemU32(0xE000ED30, 0x0001 Items, ...) -- CPU_ReadMem(4 bytes @ 0xE000ED30) -- Data:  03 00 00 00  returns 0x01 (0001ms, 2127ms total)
T3494 003:414 JLINK_ReadMemU32(0xE0001028, 0x0001 Items, ...) -- CPU_ReadMem(4 bytes @ 0xE0001028) -- Data:  00 00 00 00  returns 0x01 (0001ms, 2128ms total)
T3494 003:415 JLINK_ReadMemU32(0xE0001038, 0x0001 Items, ...) -- CPU_ReadMem(4 bytes @ 0xE0001038) -- Data:  00 02 00 00  returns 0x01 (0001ms, 2129ms total)
T3494 003:416 JLINK_ReadMemU32(0xE0001048, 0x0001 Items, ...) -- CPU_ReadMem(4 bytes @ 0xE0001048) -- Data:  00 00 00 00  returns 0x01 (0001ms, 2130ms total)
T3494 003:417 JLINK_ReadMemU32(0xE0001058, 0x0001 Items, ...) -- CPU_ReadMem(4 bytes @ 0xE0001058) -- Data:  00 00 00 00  returns 0x01 (0001ms, 2131ms total)
T3494 003:418 JLINK_ReadReg(R0)  returns 0x0800C2F3 (0000ms, 2131ms total)
T3494 003:418 JLINK_ReadReg(R1)  returns 0x20014DB0 (0000ms, 2131ms total)
T3494 003:418 JLINK_ReadReg(R2)  returns 0x00000000 (0000ms, 2131ms total)
T3494 003:418 JLINK_ReadReg(R3)  returns 0x080001D1 (0000ms, 2131ms total)
T3494 003:418 JLINK_ReadReg(R4)  returns 0x08000200 (0000ms, 2131ms total)
T3494 003:418 JLINK_ReadReg(R5)  returns 0x08000200 (0000ms, 2131ms total)
T3494 003:418 JLINK_ReadReg(R6)  returns 0x00000000 (0000ms, 2131ms total)
T3494 003:418 JLINK_ReadReg(R7)  returns 0x00000000 (0000ms, 2131ms total)
T3494 003:418 JLINK_ReadReg(R8)  returns 0x00000000 (0000ms, 2131ms total)
T3494 003:418 JLINK_ReadReg(R9)  returns 0x00000000 (0000ms, 2131ms total)
T3494 003:418 JLINK_ReadReg(R10)  returns 0x00000000 (0000ms, 2131ms total)
T3494 003:418 JLINK_ReadReg(R11)  returns 0x00000000 (0000ms, 2131ms total)
T3494 003:418 JLINK_ReadReg(R12)  returns 0x00000000 (0000ms, 2131ms total)
T3494 003:418 JLINK_ReadReg(R13 (SP))  returns 0x20014DB0 (0000ms, 2131ms total)
T3494 003:418 JLINK_ReadReg(R14)  returns 0x080001B9 (0000ms, 2131ms total)
T3494 003:418 JLINK_ReadReg(R15 (PC))  returns 0x0800C2F2 (0000ms, 2131ms total)
T3494 003:419 JLINK_ReadReg(XPSR)  returns 0x61000000 (0000ms, 2132ms total)
T3494 003:419 JLINK_ReadReg(MSP)  returns 0x20014DB0 (0000ms, 2132ms total)
T3494 003:419 JLINK_ReadReg(PSP)  returns 0x00000000 (0000ms, 2132ms total)
T3494 003:419 JLINK_ReadReg(CFBP)  returns 0x00000000 (0000ms, 2132ms total)
T3494 003:419 JLINK_ReadReg(FPSCR)  returns 0x00000000 (0007ms, 2139ms total)
T3494 003:426 JLINK_ReadReg(FPS0)  returns 0x00000000 (0000ms, 2139ms total)
T3494 003:426 JLINK_ReadReg(FPS1)  returns 0x00000000 (0000ms, 2139ms total)
T3494 003:426 JLINK_ReadReg(FPS2)  returns 0x00000000 (0000ms, 2139ms total)
T3494 003:426 JLINK_ReadReg(FPS3)  returns 0x00000000 (0000ms, 2139ms total)
T3494 003:426 JLINK_ReadReg(FPS4)  returns 0x00000000 (0000ms, 2139ms total)
T3494 003:426 JLINK_ReadReg(FPS5)  returns 0x00000000 (0000ms, 2139ms total)
T3494 003:426 JLINK_ReadReg(FPS6)  returns 0x00000000 (0001ms, 2140ms total)
T3494 003:427 JLINK_ReadReg(FPS7)  returns 0x00000000 (0000ms, 2140ms total)
T3494 003:427 JLINK_ReadReg(FPS8)  returns 0x00000000 (0000ms, 2140ms total)
T3494 003:427 JLINK_ReadReg(FPS9)  returns 0x00000000 (0000ms, 2140ms total)
T3494 003:427 JLINK_ReadReg(FPS10)  returns 0x00000000 (0000ms, 2140ms total)
T3494 003:427 JLINK_ReadReg(FPS11)  returns 0x00000000 (0000ms, 2140ms total)
T3494 003:427 JLINK_ReadReg(FPS12)  returns 0x00000000 (0000ms, 2140ms total)
T3494 003:427 JLINK_ReadReg(FPS13)  returns 0x00000000 (0000ms, 2140ms total)
T3494 003:427 JLINK_ReadReg(FPS14)  returns 0x00000000 (0000ms, 2140ms total)
T3494 003:427 JLINK_ReadReg(FPS15)  returns 0x00000000 (0000ms, 2140ms total)
T3494 003:427 JLINK_ReadReg(FPS16)  returns 0x00000000 (0000ms, 2140ms total)
T3494 003:427 JLINK_ReadReg(FPS17)  returns 0x00000000 (0000ms, 2140ms total)
T3494 003:427 JLINK_ReadReg(FPS18)  returns 0x00000000 (0000ms, 2140ms total)
T3494 003:427 JLINK_ReadReg(FPS19)  returns 0x00000000 (0000ms, 2140ms total)
T3494 003:427 JLINK_ReadReg(FPS20)  returns 0x00000000 (0000ms, 2140ms total)
T3494 003:427 JLINK_ReadReg(FPS31)  returns 0x00000000 (0000ms, 2140ms total)
T3494 003:427 JLINK_ReadReg(FPS7)  returns 0x00000000 (0000ms, 2140ms total)
T3494 003:427 JLINK_ReadReg(FPS8)  returns 0x00000000 (0000ms, 2140ms total)
T3494 003:427 JLINK_ReadReg(FPS9)  returns 0x00000000 (0000ms, 2140ms total)
T3494 003:427 JLINK_ReadReg(FPS10)  returns 0x00000000 (0000ms, 2140ms total)
T3494 003:427 JLINK_ReadReg(FPS11)  returns 0x00000000 (0000ms, 2140ms total)
T3494 003:427 JLINK_ReadReg(FPS12)  returns 0x00000000 (0000ms, 2140ms total)
T3494 003:427 JLINK_ReadReg(FPS13)  returns 0x00000000 (0000ms, 2140ms total)
T3494 003:427 JLINK_ReadReg(FPS14)  returns 0x00000000 (0000ms, 2140ms total)
T3494 003:427 JLINK_ReadReg(FPS15)  returns 0x00000000 (0000ms, 2140ms total)
T3494 003:427 JLINK_ReadReg(FPS16)  returns 0x00000000 (0000ms, 2140ms total)
T200C 003:433 JLINK_ReadMem (0x0800C2F0, 0x003C Bytes, ...) -- CPU_ReadMem(128 bytes @ 0x0800C2C0) -- Updating C cache (128 bytes @ 0x0800C2C0) -- Read from C cache (60 bytes @ 0x0800C2F0) -- Data:  10 BD 05 F0 7F FB 07 F0 2C FB 14 F0 1B F9 1C F0 ...  returns 0x00 (0002ms, 2142ms total)
T3494 005:838 JLINK_SetBPEx(Addr = 0x0800FC1E, Type = 0xFFFFFFF2)  returns 0x00000006 (0001ms, 2143ms total)
T3494 005:839 JLINK_SetBPEx(Addr = 0x0800FC14, Type = 0xFFFFFFF2)  returns 0x00000007 (0000ms, 2143ms total)
T3494 005:839 JLINK_SetBPEx(Addr = 0x0800C2D4, Type = 0xFFFFFFF2)  returns 0x00000008 (0000ms, 2143ms total)
T3494 005:839 JLINK_SetBPEx(Addr = 0x0800C296, Type = 0xFFFFFFF2)  returns 0x00000009 (0000ms, 2143ms total)
T3494 005:839 JLINK_Go() -- CPU_WriteMem(4 bytes @ 0xE0002000) -- CPU_WriteMem(4 bytes @ 0xE0002000) -- CPU_WriteMem(4 bytes @ 0xE0002000) -- CPU_WriteMem(4 bytes @ 0xE0002000) -- CPU_WriteMem(4 bytes @ 0xE0002008) -- CPU_WriteMem(4 bytes @ 0xE000200C) -- CPU_WriteMem(4 bytes @ 0xE0002010) -- CPU_WriteMem(4 bytes @ 0xE0002014) -- CPU_WriteMem(4 bytes @ 0xE0002018) (0011ms, 2154ms total)
T3494 005:950 JLINK_IsHalted()  returns FALSE (0001ms, 2155ms total)
T3494 006:051 JLINK_IsHalted()  returns FALSE (0001ms, 2155ms total)
T3494 006:152 JLINK_IsHalted()  returns FALSE (0001ms, 2155ms total)
T3494 006:253 JLINK_IsHalted()  returns FALSE (0001ms, 2155ms total)
T3494 006:354 JLINK_IsHalted()  returns FALSE (0001ms, 2155ms total)
T3494 006:455 JLINK_IsHalted()  returns FALSE (0000ms, 2154ms total)
T3494 006:555 JLINK_IsHalted()  returns FALSE (0001ms, 2155ms total)
T3494 006:656 JLINK_IsHalted()  returns FALSE (0001ms, 2155ms total)
T3494 006:757 JLINK_IsHalted()  returns FALSE (0001ms, 2155ms total)
T3494 006:858 JLINK_IsHalted()  returns FALSE (0002ms, 2156ms total)
T3494 006:960 JLINK_IsHalted()  returns FALSE (0001ms, 2155ms total)
T3494 007:061 JLINK_IsHalted()  returns FALSE (0001ms, 2155ms total)
T3494 007:162 JLINK_IsHalted()  returns FALSE (0001ms, 2155ms total)
T3494 007:263 JLINK_IsHalted()  returns FALSE (0001ms, 2155ms total)
T3494 007:364 JLINK_IsHalted()  returns FALSE (0001ms, 2155ms total)
T3494 007:465 JLINK_IsHalted()  returns FALSE (0001ms, 2155ms total)
T3494 007:566 JLINK_IsHalted()  returns FALSE (0001ms, 2155ms total)
T3494 007:667 JLINK_IsHalted()  returns FALSE (0001ms, 2155ms total)
T3494 007:768 JLINK_IsHalted()  returns FALSE (0001ms, 2155ms total)
T3494 007:869 JLINK_IsHalted()  returns FALSE (0002ms, 2156ms total)
T3494 007:971 JLINK_IsHalted()  returns FALSE (0001ms, 2155ms total)
T3494 008:072 JLINK_IsHalted()  returns FALSE (0001ms, 2155ms total)
T3494 008:173 JLINK_IsHalted()  returns FALSE (0001ms, 2155ms total)
T3494 008:274 JLINK_IsHalted()  returns FALSE (0001ms, 2155ms total)
T3494 008:375 JLINK_IsHalted()  returns FALSE (0000ms, 2154ms total)
T3494 008:476 JLINK_IsHalted()  returns FALSE (0001ms, 2155ms total)
T3494 008:577 JLINK_IsHalted()  returns FALSE (0001ms, 2155ms total)
T3494 008:678 JLINK_IsHalted()  returns FALSE (0001ms, 2155ms total)
T3494 008:779 JLINK_IsHalted()  returns FALSE (0001ms, 2155ms total)
T3494 008:880 JLINK_IsHalted()  returns FALSE (0002ms, 2156ms total)
T3494 008:982 JLINK_IsHalted()  returns FALSE (0001ms, 2155ms total)
T200C 009:081 JLINK_SetBPEx(Addr = 0x0800C350, Type = 0xFFFFFFF2) -- CPU is running -- CPU is running -- CPU_WriteMem(4 bytes @ 0xE0002000) -- CPU is running -- CPU_WriteMem(4 bytes @ 0xE0002018)  returns 0x0000000A (0002ms, 2156ms total)
T3494 009:083 JLINK_IsHalted()  returns FALSE (0001ms, 2157ms total)
T3494 009:184 JLINK_IsHalted()  returns TRUE (0005ms, 2161ms total)
T3494 009:189 JLINK_Halt()  returns 0x00 (0000ms, 2156ms total)
T3494 009:189 JLINK_IsHalted()  returns TRUE (0000ms, 2156ms total)
T3494 009:189 JLINK_IsHalted()  returns TRUE (0000ms, 2156ms total)
T3494 009:189 JLINK_IsHalted()  returns TRUE (0000ms, 2156ms total)
T3494 009:189 JLINK_ReadReg(R15 (PC))  returns 0x0800C296 (0000ms, 2156ms total)
T3494 009:189 JLINK_ReadReg(XPSR)  returns 0x01000048 (0000ms, 2156ms total)
T3494 009:189 JLINK_ClrBPEx(BPHandle = 0x00000006)  returns 0x00 (0000ms, 2156ms total)
T3494 009:189 JLINK_ClrBPEx(BPHandle = 0x00000007)  returns 0x00 (0000ms, 2156ms total)
T3494 009:189 JLINK_ClrBPEx(BPHandle = 0x00000008)  returns 0x00 (0000ms, 2156ms total)
T3494 009:189 JLINK_ClrBPEx(BPHandle = 0x00000009)  returns 0x00 (0000ms, 2156ms total)
T3494 009:189 JLINK_ClrBPEx(BPHandle = 0x0000000A)  returns 0x00 (0000ms, 2156ms total)
T3494 009:189 JLINK_ReadMemU32(0xE000ED30, 0x0001 Items, ...) -- CPU_ReadMem(4 bytes @ 0xE000ED30) -- Data:  03 00 00 00  returns 0x01 (0002ms, 2158ms total)
T3494 009:191 JLINK_ReadMemU32(0xE0001028, 0x0001 Items, ...) -- CPU_ReadMem(4 bytes @ 0xE0001028) -- Data:  00 00 00 00  returns 0x01 (0001ms, 2159ms total)
T3494 009:192 JLINK_ReadMemU32(0xE0001038, 0x0001 Items, ...) -- CPU_ReadMem(4 bytes @ 0xE0001038) -- Data:  00 02 00 00  returns 0x01 (0001ms, 2160ms total)
T3494 009:193 JLINK_ReadMemU32(0xE0001048, 0x0001 Items, ...) -- CPU_ReadMem(4 bytes @ 0xE0001048) -- Data:  00 00 00 00  returns 0x01 (0001ms, 2161ms total)
T3494 009:194 JLINK_ReadMemU32(0xE0001058, 0x0001 Items, ...) -- CPU_ReadMem(4 bytes @ 0xE0001058) -- Data:  00 00 00 00  returns 0x01 (0001ms, 2162ms total)
T3494 009:195 JLINK_ReadReg(R0)  returns 0x00000001 (0000ms, 2162ms total)
T3494 009:195 JLINK_ReadReg(R1)  returns 0x20000000 (0000ms, 2162ms total)
T3494 009:195 JLINK_ReadReg(R2)  returns 0x0101A8C0 (0000ms, 2162ms total)
T3494 009:195 JLINK_ReadReg(R3)  returns 0x00000CDD (0000ms, 2162ms total)
T3494 009:195 JLINK_ReadReg(R4)  returns 0x08000200 (0000ms, 2162ms total)
T3494 009:195 JLINK_ReadReg(R5)  returns 0x08000200 (0000ms, 2162ms total)
T3494 009:195 JLINK_ReadReg(R6)  returns 0x00000000 (0000ms, 2162ms total)
T3494 009:195 JLINK_ReadReg(R7)  returns 0x00000000 (0000ms, 2162ms total)
T3494 009:195 JLINK_ReadReg(R8)  returns 0x00000000 (0000ms, 2162ms total)
T3494 009:195 JLINK_ReadReg(R9)  returns 0x00000000 (0000ms, 2162ms total)
T3494 009:195 JLINK_ReadReg(R10)  returns 0x00000000 (0000ms, 2162ms total)
T3494 009:195 JLINK_ReadReg(R11)  returns 0x00000000 (0000ms, 2162ms total)
T3494 009:195 JLINK_ReadReg(R12)  returns 0x00000150 (0000ms, 2162ms total)
T3494 009:195 JLINK_ReadReg(R13 (SP))  returns 0x20014D80 (0000ms, 2162ms total)
T3494 009:195 JLINK_ReadReg(R14)  returns 0x0800C289 (0000ms, 2162ms total)
T3494 009:195 JLINK_ReadReg(R15 (PC))  returns 0x0800C296 (0001ms, 2163ms total)
T3494 009:196 JLINK_ReadReg(XPSR)  returns 0x01000048 (0000ms, 2163ms total)
T3494 009:196 JLINK_ReadReg(MSP)  returns 0x20014D80 (0000ms, 2163ms total)
T3494 009:196 JLINK_ReadReg(PSP)  returns 0x00000000 (0000ms, 2163ms total)
T3494 009:196 JLINK_ReadReg(CFBP)  returns 0x00000000 (0000ms, 2163ms total)
T3494 009:196 JLINK_ReadReg(FPSCR)  returns 0x00000000 (0007ms, 2170ms total)
T3494 009:203 JLINK_ReadReg(FPS0)  returns 0x00000000 (0000ms, 2170ms total)
T3494 009:203 JLINK_ReadReg(FPS1)  returns 0x00000000 (0000ms, 2170ms total)
T3494 009:203 JLINK_ReadReg(FPS2)  returns 0x00000000 (0000ms, 2170ms total)
T3494 009:203 JLINK_ReadReg(FPS3)  returns 0x00000000 (0000ms, 2170ms total)
T3494 009:203 JLINK_ReadReg(FPS4)  returns 0x00000000 (0001ms, 2171ms total)
T3494 009:204 JLINK_ReadReg(FPS5)  returns 0x00000000 (0000ms, 2171ms total)
T3494 009:204 JLINK_ReadReg(FPS6)  returns 0x00000000 (0000ms, 2171ms total)
T3494 009:204 JLINK_ReadReg(FPS7)  returns 0x00000000 (0000ms, 2171ms total)
T3494 009:204 JLINK_ReadReg(FPS8)  returns 0x00000000 (0000ms, 2171ms total)
T3494 009:204 JLINK_ReadReg(FPS9)  returns 0x00000000 (0000ms, 2171ms total)
T3494 009:204 JLINK_ReadReg(FPS10)  returns 0x00000000 (0000ms, 2171ms total)
T3494 009:204 JLINK_ReadReg(FPS11)  returns 0x00000000 (0000ms, 2171ms total)
T3494 009:204 JLINK_ReadReg(FPS12)  returns 0x00000000 (0000ms, 2171ms total)
T3494 009:204 JLINK_ReadReg(FPS13)  returns 0x00000000 (0000ms, 2171ms total)
T3494 009:204 JLINK_ReadReg(FPS14)  returns 0x00000000 (0000ms, 2171ms total)
T3494 009:204 JLINK_ReadReg(FPS15)  returns 0x00000000 (0000ms, 2171ms total)
T3494 009:204 JLINK_ReadReg(FPS16)  returns 0x00000000 (0000ms, 2171ms total)
T3494 009:204 JLINK_ReadReg(FPS17)  returns 0x00000000 (0000ms, 2171ms total)
T3494 009:204 JLINK_ReadReg(FPS18)  returns 0x00000000 (0000ms, 2171ms total)
T3494 009:204 JLINK_ReadReg(FPS19)  returns 0x00000000 (0000ms, 2171ms total)
T3494 009:204 JLINK_ReadReg(FPS20)  returns 0x00000000 (0000ms, 2171ms total)
T3494 009:204 JLINK_ReadReg(FPS31)  returns 0x00000000 (0000ms, 2171ms total)
T3494 009:204 JLINK_ReadReg(FPS7)  returns 0x00000000 (0000ms, 2171ms total)
T3494 009:204 JLINK_ReadReg(FPS8)  returns 0x00000000 (0000ms, 2171ms total)
T3494 009:204 JLINK_ReadReg(FPS9)  returns 0x00000000 (0000ms, 2171ms total)
T3494 009:204 JLINK_ReadReg(FPS10)  returns 0x00000000 (0000ms, 2171ms total)
T3494 009:204 JLINK_ReadReg(FPS11)  returns 0x00000000 (0000ms, 2171ms total)
T3494 009:204 JLINK_ReadReg(FPS12)  returns 0x00000000 (0000ms, 2171ms total)
T3494 009:204 JLINK_ReadReg(FPS13)  returns 0x00000000 (0000ms, 2171ms total)
T3494 009:204 JLINK_ReadReg(FPS14)  returns 0x00000000 (0000ms, 2171ms total)
T3494 009:204 JLINK_ReadReg(FPS15)  returns 0x00000000 (0000ms, 2171ms total)
T3494 009:204 JLINK_ReadReg(FPS16)  returns 0x00000000 (0000ms, 2171ms total)
T200C 009:205 JLINK_ReadMem (0x20014D84, 0x0004 Bytes, ...) -- CPU_ReadMem(64 bytes @ 0x20014D80) -- Updating C cache (64 bytes @ 0x20014D80) -- Read from C cache (4 bytes @ 0x20014D84) -- Data:  F9 FF FF FF  returns 0x00 (0001ms, 2172ms total)
T200C 009:206 JLINK_ReadMem (0x20014DA0, 0x0004 Bytes, ...) -- Read from C cache (4 bytes @ 0x20014DA0) -- Data:  E4 50 01 08  returns 0x00 (0001ms, 2173ms total)
T200C 009:207 JLINK_ReadMem (0x20014DA4, 0x0004 Bytes, ...) -- Read from C cache (4 bytes @ 0x20014DA4) -- Data:  00 00 00 A1  returns 0x00 (0000ms, 2173ms total)
T200C 009:207 JLINK_ReadMem (0x20014D9C, 0x0004 Bytes, ...) -- Read from C cache (4 bytes @ 0x20014D9C) -- Data:  6D 38 01 08  returns 0x00 (0000ms, 2173ms total)
T200C 009:207 JLINK_ReadMem (0xE000ED28, 0x0004 Bytes, ...) -- CPU_ReadMem(4 bytes @ 0xE000ED28) -- Data:  00 00 00 00  returns 0x00 (0000ms, 2173ms total)
T200C 009:209 JLINK_ReadMem (0x20014DAC, 0x0004 Bytes, ...) -- Read from C cache (4 bytes @ 0x20014DAC) -- Data:  2F C3 00 08  returns 0x00 (0000ms, 2173ms total)
T200C 009:209 JLINK_ReadMem (0x20014DA8, 0x0004 Bytes, ...) -- Read from C cache (4 bytes @ 0x20014DA8) -- Data:  00 02 00 08  returns 0x00 (0000ms, 2173ms total)
T200C 009:211 JLINK_ReadMem (0x0800C28E, 0x0002 Bytes, ...) -- CPU_ReadMem(64 bytes @ 0x0800C280) -- Updating C cache (64 bytes @ 0x0800C280) -- Read from C cache (2 bytes @ 0x0800C28E) -- Data:  08 46  returns 0x00 (0001ms, 2174ms total)
T200C 009:212 JLINK_ReadMem (0x0800C290, 0x003C Bytes, ...) -- CPU_ReadMem(64 bytes @ 0x0800C2C0) -- Updating C cache (64 bytes @ 0x0800C2C0) -- Read from C cache (60 bytes @ 0x0800C290) -- Data:  40 68 40 1C 48 60 62 48 0B F0 D4 F9 66 49 48 80 ...  returns 0x00 (0002ms, 2176ms total)
T3494 013:757 JLINK_Step() -- Read from C cache (2 bytes @ 0x0800C296) -- CPU_ReadMem(4 bytes @ 0xE0001004) -- CPU_ReadMem(64 bytes @ 0x0800C400) -- Updating C cache (64 bytes @ 0x0800C400) -- Read from C cache (4 bytes @ 0x0800C420) -- Simulated  returns 0x00 (0006ms, 2182ms total)
T3494 013:763 JLINK_ReadReg(R15 (PC))  returns 0x0800C298 (0000ms, 2182ms total)
T3494 013:763 JLINK_ReadReg(XPSR)  returns 0x01000048 (0000ms, 2182ms total)
T3494 013:763 JLINK_SetBPEx(Addr = 0x0800FC1E, Type = 0xFFFFFFF2)  returns 0x0000000B (0000ms, 2182ms total)
T3494 013:763 JLINK_SetBPEx(Addr = 0x0800FC14, Type = 0xFFFFFFF2)  returns 0x0000000C (0000ms, 2182ms total)
T3494 013:763 JLINK_SetBPEx(Addr = 0x0800C2D4, Type = 0xFFFFFFF2)  returns 0x0000000D (0000ms, 2182ms total)
T3494 013:763 JLINK_SetBPEx(Addr = 0x0800C296, Type = 0xFFFFFFF2)  returns 0x0000000E (0000ms, 2182ms total)
T3494 013:763 JLINK_SetBPEx(Addr = 0x0800C350, Type = 0xFFFFFFF2)  returns 0x0000000F (0000ms, 2182ms total)
T3494 013:763 JLINK_Go() -- CPU_WriteMem(4 bytes @ 0xE0002000) -- CPU_WriteMem(4 bytes @ 0xE0002000) -- CPU_WriteMem(4 bytes @ 0xE0002000) -- CPU_WriteMem(4 bytes @ 0xE0002000) -- CPU_WriteMem(4 bytes @ 0xE0002000) -- CPU_WriteMem(4 bytes @ 0xE0001004) (0008ms, 2190ms total)
T3494 013:871 JLINK_IsHalted()  returns TRUE (0005ms, 2195ms total)
T3494 013:876 JLINK_Halt()  returns 0x00 (0000ms, 2190ms total)
T3494 013:876 JLINK_IsHalted()  returns TRUE (0000ms, 2190ms total)
T3494 013:876 JLINK_IsHalted()  returns TRUE (0000ms, 2190ms total)
T3494 013:876 JLINK_IsHalted()  returns TRUE (0000ms, 2190ms total)
T3494 013:876 JLINK_ReadReg(R15 (PC))  returns 0x0800C2D4 (0000ms, 2190ms total)
T3494 013:877 JLINK_ReadReg(XPSR)  returns 0x01000048 (0000ms, 2190ms total)
T3494 013:877 JLINK_ClrBPEx(BPHandle = 0x0000000B)  returns 0x00 (0000ms, 2190ms total)
T3494 013:877 JLINK_ClrBPEx(BPHandle = 0x0000000C)  returns 0x00 (0000ms, 2190ms total)
T3494 013:877 JLINK_ClrBPEx(BPHandle = 0x0000000D)  returns 0x00 (0000ms, 2190ms total)
T3494 013:877 JLINK_ClrBPEx(BPHandle = 0x0000000E)  returns 0x00 (0000ms, 2190ms total)
T3494 013:877 JLINK_ClrBPEx(BPHandle = 0x0000000F)  returns 0x00 (0000ms, 2190ms total)
T3494 013:877 JLINK_ReadMemU32(0xE000ED30, 0x0001 Items, ...) -- CPU_ReadMem(4 bytes @ 0xE000ED30) -- Data:  03 00 00 00  returns 0x01 (0001ms, 2191ms total)
T3494 013:878 JLINK_ReadMemU32(0xE0001028, 0x0001 Items, ...) -- CPU_ReadMem(4 bytes @ 0xE0001028) -- Data:  00 00 00 00  returns 0x01 (0001ms, 2192ms total)
T3494 013:879 JLINK_ReadMemU32(0xE0001038, 0x0001 Items, ...) -- CPU_ReadMem(4 bytes @ 0xE0001038) -- Data:  00 02 00 00  returns 0x01 (0001ms, 2193ms total)
T3494 013:880 JLINK_ReadMemU32(0xE0001048, 0x0001 Items, ...) -- CPU_ReadMem(4 bytes @ 0xE0001048) -- Data:  00 00 00 00  returns 0x01 (0001ms, 2194ms total)
T3494 013:881 JLINK_ReadMemU32(0xE0001058, 0x0001 Items, ...) -- CPU_ReadMem(4 bytes @ 0xE0001058) -- Data:  00 00 00 00  returns 0x01 (0001ms, 2195ms total)
T3494 013:882 JLINK_ReadReg(R0)  returns 0x00000002 (0000ms, 2195ms total)
T3494 013:882 JLINK_ReadReg(R1)  returns 0x20000000 (0000ms, 2195ms total)
T3494 013:883 JLINK_ReadReg(R2)  returns 0x00000000 (0000ms, 2196ms total)
T3494 013:883 JLINK_ReadReg(R3)  returns 0x00000000 (0000ms, 2196ms total)
T3494 013:883 JLINK_ReadReg(R4)  returns 0x00000CDD (0000ms, 2196ms total)
T3494 013:883 JLINK_ReadReg(R5)  returns 0x08000200 (0000ms, 2196ms total)
T3494 013:883 JLINK_ReadReg(R6)  returns 0x00000000 (0000ms, 2196ms total)
T3494 013:883 JLINK_ReadReg(R7)  returns 0x00000000 (0000ms, 2196ms total)
T3494 013:883 JLINK_ReadReg(R8)  returns 0x00000000 (0000ms, 2196ms total)
T3494 013:883 JLINK_ReadReg(R9)  returns 0x00000000 (0000ms, 2196ms total)
T3494 013:883 JLINK_ReadReg(R10)  returns 0x00000000 (0000ms, 2196ms total)
T3494 013:883 JLINK_ReadReg(R11)  returns 0x00000000 (0000ms, 2196ms total)
T3494 013:883 JLINK_ReadReg(R12)  returns 0x00000150 (0000ms, 2196ms total)
T3494 013:883 JLINK_ReadReg(R13 (SP))  returns 0x20014D80 (0000ms, 2196ms total)
T3494 013:883 JLINK_ReadReg(R14)  returns 0x0800C2C7 (0000ms, 2196ms total)
T3494 013:883 JLINK_ReadReg(R15 (PC))  returns 0x0800C2D4 (0000ms, 2196ms total)
T3494 013:883 JLINK_ReadReg(XPSR)  returns 0x01000048 (0000ms, 2196ms total)
T3494 013:883 JLINK_ReadReg(MSP)  returns 0x20014D80 (0000ms, 2196ms total)
T3494 013:883 JLINK_ReadReg(PSP)  returns 0x00000000 (0000ms, 2196ms total)
T3494 013:883 JLINK_ReadReg(CFBP)  returns 0x00000000 (0000ms, 2196ms total)
T3494 013:883 JLINK_ReadReg(FPSCR)  returns 0x00000000 (0008ms, 2204ms total)
T3494 013:891 JLINK_ReadReg(FPS0)  returns 0x00000000 (0000ms, 2204ms total)
T3494 013:891 JLINK_ReadReg(FPS1)  returns 0x00000000 (0000ms, 2204ms total)
T3494 013:891 JLINK_ReadReg(FPS2)  returns 0x00000000 (0000ms, 2204ms total)
T3494 013:891 JLINK_ReadReg(FPS3)  returns 0x00000000 (0000ms, 2204ms total)
T3494 013:891 JLINK_ReadReg(FPS4)  returns 0x00000000 (0000ms, 2204ms total)
T3494 013:891 JLINK_ReadReg(FPS5)  returns 0x00000000 (0000ms, 2204ms total)
T3494 013:891 JLINK_ReadReg(FPS6)  returns 0x00000000 (0000ms, 2204ms total)
T3494 013:891 JLINK_ReadReg(FPS7)  returns 0x00000000 (0000ms, 2204ms total)
T3494 013:891 JLINK_ReadReg(FPS8)  returns 0x00000000 (0000ms, 2204ms total)
T3494 013:891 JLINK_ReadReg(FPS9)  returns 0x00000000 (0000ms, 2204ms total)
T3494 013:891 JLINK_ReadReg(FPS10)  returns 0x00000000 (0000ms, 2204ms total)
T3494 013:891 JLINK_ReadReg(FPS11)  returns 0x00000000 (0000ms, 2204ms total)
T3494 013:891 JLINK_ReadReg(FPS12)  returns 0x00000000 (0000ms, 2204ms total)
T3494 013:891 JLINK_ReadReg(FPS13)  returns 0x00000000 (0000ms, 2204ms total)
T3494 013:891 JLINK_ReadReg(FPS14)  returns 0x00000000 (0000ms, 2204ms total)
T3494 013:891 JLINK_ReadReg(FPS15)  returns 0x00000000 (0000ms, 2204ms total)
T3494 013:891 JLINK_ReadReg(FPS16)  returns 0x00000000 (0001ms, 2205ms total)
T3494 013:892 JLINK_ReadReg(FPS17)  returns 0x00000000 (0000ms, 2205ms total)
T3494 013:892 JLINK_ReadReg(FPS18)  returns 0x00000000 (0000ms, 2205ms total)
T3494 013:892 JLINK_ReadReg(FPS19)  returns 0x00000000 (0000ms, 2205ms total)
T3494 013:892 JLINK_ReadReg(FPS20)  returns 0x00000000 (0000ms, 2205ms total)
T3494 013:892 JLINK_ReadReg(FPS31)  returns 0x00000000 (0000ms, 2205ms total)
T3494 013:892 JLINK_ReadReg(FPS7)  returns 0x00000000 (0000ms, 2205ms total)
T3494 013:892 JLINK_ReadReg(FPS8)  returns 0x00000000 (0000ms, 2205ms total)
T3494 013:892 JLINK_ReadReg(FPS9)  returns 0x00000000 (0000ms, 2205ms total)
T3494 013:892 JLINK_ReadReg(FPS10)  returns 0x00000000 (0000ms, 2205ms total)
T3494 013:892 JLINK_ReadReg(FPS11)  returns 0x00000000 (0000ms, 2205ms total)
T3494 013:892 JLINK_ReadReg(FPS12)  returns 0x00000000 (0000ms, 2205ms total)
T3494 013:892 JLINK_ReadReg(FPS13)  returns 0x00000000 (0000ms, 2205ms total)
T3494 013:892 JLINK_ReadReg(FPS14)  returns 0x00000000 (0000ms, 2205ms total)
T3494 013:892 JLINK_ReadReg(FPS15)  returns 0x00000000 (0000ms, 2205ms total)
T3494 013:892 JLINK_ReadReg(FPS16)  returns 0x00000000 (0000ms, 2205ms total)
T200C 013:893 JLINK_ReadMem (0x20014D84, 0x0004 Bytes, ...) -- CPU_ReadMem(64 bytes @ 0x20014D80) -- Updating C cache (64 bytes @ 0x20014D80) -- Read from C cache (4 bytes @ 0x20014D84) -- Data:  F9 FF FF FF  returns 0x00 (0001ms, 2206ms total)
T200C 013:894 JLINK_ReadMem (0x20014DA0, 0x0004 Bytes, ...) -- Read from C cache (4 bytes @ 0x20014DA0) -- Data:  E4 50 01 08  returns 0x00 (0001ms, 2207ms total)
T200C 013:895 JLINK_ReadMem (0x20014DA4, 0x0004 Bytes, ...) -- Read from C cache (4 bytes @ 0x20014DA4) -- Data:  00 00 00 A1  returns 0x00 (0000ms, 2207ms total)
T200C 013:895 JLINK_ReadMem (0x20014D9C, 0x0004 Bytes, ...) -- Read from C cache (4 bytes @ 0x20014D9C) -- Data:  6D 38 01 08  returns 0x00 (0000ms, 2207ms total)
T200C 013:895 JLINK_ReadMem (0xE000ED28, 0x0004 Bytes, ...) -- CPU_ReadMem(4 bytes @ 0xE000ED28) -- Data:  00 00 00 00  returns 0x00 (0001ms, 2208ms total)
T200C 013:896 JLINK_ReadMem (0x20014DAC, 0x0004 Bytes, ...) -- Read from C cache (4 bytes @ 0x20014DAC) -- Data:  2F C3 00 08  returns 0x00 (0000ms, 2208ms total)
T200C 013:896 JLINK_ReadMem (0x20014DA8, 0x0004 Bytes, ...) -- Read from C cache (4 bytes @ 0x20014DA8) -- Data:  00 02 00 08  returns 0x00 (0000ms, 2208ms total)
T200C 013:898 JLINK_ReadMem (0x0800C2CC, 0x003C Bytes, ...) -- CPU_ReadMem(128 bytes @ 0x0800C2C0) -- Updating C cache (128 bytes @ 0x0800C2C0) -- Read from C cache (60 bytes @ 0x0800C2CC) -- Data:  08 46 40 68 40 1C 48 60 52 48 0B F0 B5 F9 57 49 ...  returns 0x00 (0002ms, 2210ms total)
T3494 014:488 JLINK_Step() -- Read from C cache (2 bytes @ 0x0800C2D4) -- CPU_ReadMem(4 bytes @ 0xE0001004) -- CPU_ReadMem(64 bytes @ 0x0800C400) -- Updating C cache (64 bytes @ 0x0800C400) -- Read from C cache (4 bytes @ 0x0800C420) -- Simulated  returns 0x00 (0005ms, 2215ms total)
T3494 014:493 JLINK_ReadReg(R15 (PC))  returns 0x0800C2D6 (0000ms, 2215ms total)
T3494 014:493 JLINK_ReadReg(XPSR)  returns 0x01000048 (0000ms, 2215ms total)
T3494 014:493 JLINK_SetBPEx(Addr = 0x0800FC1E, Type = 0xFFFFFFF2)  returns 0x00000010 (0000ms, 2215ms total)
T3494 014:493 JLINK_SetBPEx(Addr = 0x0800FC14, Type = 0xFFFFFFF2)  returns 0x00000011 (0000ms, 2215ms total)
T3494 014:493 JLINK_SetBPEx(Addr = 0x0800C2D4, Type = 0xFFFFFFF2)  returns 0x00000012 (0000ms, 2215ms total)
T3494 014:493 JLINK_SetBPEx(Addr = 0x0800C296, Type = 0xFFFFFFF2)  returns 0x00000013 (0000ms, 2215ms total)
T3494 014:493 JLINK_SetBPEx(Addr = 0x0800C350, Type = 0xFFFFFFF2)  returns 0x00000014 (0000ms, 2215ms total)
T3494 014:493 JLINK_Go() -- CPU_WriteMem(4 bytes @ 0xE0002000) -- CPU_WriteMem(4 bytes @ 0xE0002000) -- CPU_WriteMem(4 bytes @ 0xE0002000) -- CPU_WriteMem(4 bytes @ 0xE0002000) -- CPU_WriteMem(4 bytes @ 0xE0002000) -- CPU_WriteMem(4 bytes @ 0xE0001004) (0009ms, 2224ms total)
T3494 014:602 JLINK_IsHalted()  returns TRUE (0005ms, 2229ms total)
T3494 014:607 JLINK_Halt()  returns 0x00 (0000ms, 2224ms total)
T3494 014:607 JLINK_IsHalted()  returns TRUE (0000ms, 2224ms total)
T3494 014:607 JLINK_IsHalted()  returns TRUE (0000ms, 2224ms total)
T3494 014:607 JLINK_IsHalted()  returns TRUE (0000ms, 2224ms total)
T3494 014:607 JLINK_ReadReg(R15 (PC))  returns 0x0800C296 (0000ms, 2224ms total)
T3494 014:607 JLINK_ReadReg(XPSR)  returns 0x01000048 (0000ms, 2224ms total)
T3494 014:607 JLINK_ClrBPEx(BPHandle = 0x00000010)  returns 0x00 (0000ms, 2224ms total)
T3494 014:607 JLINK_ClrBPEx(BPHandle = 0x00000011)  returns 0x00 (0000ms, 2224ms total)
T3494 014:607 JLINK_ClrBPEx(BPHandle = 0x00000012)  returns 0x00 (0000ms, 2224ms total)
T3494 014:607 JLINK_ClrBPEx(BPHandle = 0x00000013)  returns 0x00 (0000ms, 2224ms total)
T3494 014:607 JLINK_ClrBPEx(BPHandle = 0x00000014)  returns 0x00 (0000ms, 2224ms total)
T3494 014:607 JLINK_ReadMemU32(0xE000ED30, 0x0001 Items, ...) -- CPU_ReadMem(4 bytes @ 0xE000ED30) -- Data:  03 00 00 00  returns 0x01 (0002ms, 2226ms total)
T3494 014:609 JLINK_ReadMemU32(0xE0001028, 0x0001 Items, ...) -- CPU_ReadMem(4 bytes @ 0xE0001028) -- Data:  00 00 00 00  returns 0x01 (0001ms, 2227ms total)
T3494 014:610 JLINK_ReadMemU32(0xE0001038, 0x0001 Items, ...) -- CPU_ReadMem(4 bytes @ 0xE0001038) -- Data:  00 02 00 00  returns 0x01 (0001ms, 2228ms total)
T3494 014:611 JLINK_ReadMemU32(0xE0001048, 0x0001 Items, ...) -- CPU_ReadMem(4 bytes @ 0xE0001048) -- Data:  00 00 00 00  returns 0x01 (0001ms, 2229ms total)
T3494 014:612 JLINK_ReadMemU32(0xE0001058, 0x0001 Items, ...) -- CPU_ReadMem(4 bytes @ 0xE0001058) -- Data:  00 00 00 00  returns 0x01 (0001ms, 2230ms total)
T3494 014:613 JLINK_ReadReg(R0)  returns 0x00000003 (0000ms, 2230ms total)
T3494 014:613 JLINK_ReadReg(R1)  returns 0x20000000 (0000ms, 2230ms total)
T3494 014:613 JLINK_ReadReg(R2)  returns 0x00000001 (0000ms, 2230ms total)
T3494 014:613 JLINK_ReadReg(R3)  returns 0x00000000 (0000ms, 2230ms total)
T3494 014:613 JLINK_ReadReg(R4)  returns 0x08000200 (0000ms, 2230ms total)
T3494 014:613 JLINK_ReadReg(R5)  returns 0x08000200 (0000ms, 2230ms total)
T3494 014:613 JLINK_ReadReg(R6)  returns 0x00000000 (0000ms, 2230ms total)
T3494 014:613 JLINK_ReadReg(R7)  returns 0x00000000 (0000ms, 2230ms total)
T3494 014:613 JLINK_ReadReg(R8)  returns 0x00000000 (0000ms, 2230ms total)
T3494 014:613 JLINK_ReadReg(R9)  returns 0x00000000 (0000ms, 2230ms total)
T3494 014:613 JLINK_ReadReg(R10)  returns 0x00000000 (0000ms, 2230ms total)
T3494 014:613 JLINK_ReadReg(R11)  returns 0x00000000 (0000ms, 2230ms total)
T3494 014:613 JLINK_ReadReg(R12)  returns 0x00000150 (0000ms, 2230ms total)
T3494 014:613 JLINK_ReadReg(R13 (SP))  returns 0x20014D80 (0000ms, 2230ms total)
T3494 014:613 JLINK_ReadReg(R14)  returns 0x0800C289 (0000ms, 2230ms total)
T3494 014:613 JLINK_ReadReg(R15 (PC))  returns 0x0800C296 (0000ms, 2230ms total)
T3494 014:613 JLINK_ReadReg(XPSR)  returns 0x01000048 (0001ms, 2231ms total)
T3494 014:614 JLINK_ReadReg(MSP)  returns 0x20014D80 (0000ms, 2231ms total)
T3494 014:614 JLINK_ReadReg(PSP)  returns 0x00000000 (0000ms, 2231ms total)
T3494 014:614 JLINK_ReadReg(CFBP)  returns 0x00000000 (0000ms, 2231ms total)
T3494 014:614 JLINK_ReadReg(FPSCR)  returns 0x00000000 (0007ms, 2238ms total)
T3494 014:621 JLINK_ReadReg(FPS0)  returns 0x00000000 (0000ms, 2238ms total)
T3494 014:621 JLINK_ReadReg(FPS1)  returns 0x00000000 (0000ms, 2238ms total)
T3494 014:622 JLINK_ReadReg(FPS2)  returns 0x00000000 (0000ms, 2239ms total)
T3494 014:622 JLINK_ReadReg(FPS3)  returns 0x00000000 (0000ms, 2239ms total)
T3494 014:622 JLINK_ReadReg(FPS4)  returns 0x00000000 (0000ms, 2239ms total)
T3494 014:622 JLINK_ReadReg(FPS5)  returns 0x00000000 (0000ms, 2239ms total)
T3494 014:622 JLINK_ReadReg(FPS6)  returns 0x00000000 (0000ms, 2239ms total)
T3494 014:622 JLINK_ReadReg(FPS7)  returns 0x00000000 (0000ms, 2239ms total)
T3494 014:622 JLINK_ReadReg(FPS8)  returns 0x00000000 (0000ms, 2239ms total)
T3494 014:622 JLINK_ReadReg(FPS9)  returns 0x00000000 (0000ms, 2239ms total)
T3494 014:622 JLINK_ReadReg(FPS10)  returns 0x00000000 (0000ms, 2239ms total)
